T1D90 000:006.224   SEGGER J-Link V7.54d Log File
T1D90 000:006.339   DLL Compiled: Sep 28 2021 16:14:07
T1D90 000:006.351   Logging started @ 2022-11-16 05:09
T1D90 000:006.363 - 6.369ms
T1D90 000:006.378 JLINK_SetWarnOutHandler(...)
T1D90 000:006.392 - 0.019ms
T1D90 000:006.404 JLINK_OpenEx(...)
T1D90 000:008.890   Firmware: J-Link V9 compiled May  7 2021 16:26:12
T1D90 000:009.306   Firmware: J-Link V9 compiled May  7 2021 16:26:12
T1D90 000:009.471   Decompressing FW timestamp took 122 us
T1D90 000:019.261   Hardware: V9.70
T1D90 000:019.298   S/N: 59765579
T1D90 000:019.316   OEM: SEGGER
T1D90 000:019.334   Feature(s): RDI, GDB, FlashDL, FlashBP, JFlash
T1D90 000:020.429   TELNET listener socket opened on port 19021
T1D90 000:020.618   WEBSRV Starting webserver
T1D90 000:020.918   WEBSRV Webserver running on local port 19080
T1D90 000:027.198 - 20.813ms returns "O.K."
T1D90 000:027.235 JLINK_GetEmuCaps()
T1D90 000:027.249 - 0.019ms returns 0xB9FF7BBF
T1D90 000:027.264 JLINK_TIF_GetAvailable(...)
T1D90 000:027.443 - 0.187ms
T1D90 000:027.460 JLINK_SetErrorOutHandler(...)
T1D90 000:027.472 - 0.018ms
T1D90 000:027.493 JLINK_ExecCommand("ProjectFile = "D:\Work\RoadBrain\FW_2nd\MDK-ARM\JLinkSettings.ini"", ...). 
T1D90 000:035.595   Ref file found at: C:\Keil_v5\ARM\Segger\JLinkDevices.ref
T1D90 000:035.743   XML referenced by ref file: C:\Program Files\SEGGER\JLink\JLinkDevices.xml
T1D90 000:036.480   C:\Program Files\SEGGER\JLink\JLinkDevices.xml evaluated successfully.
T1D90 000:080.600 - 53.120ms returns 0x00
T1D90 000:083.741 JLINK_ExecCommand("Device = STM32F103VC", ...). 
T1D90 000:086.904   Device "STM32F103VC" selected.
T1D90 000:087.313 - 3.554ms returns 0x00
T1D90 000:087.333 JLINK_ExecCommand("DisableConnectionTimeout", ...). 
T1D90 000:087.349 - 0.007ms returns 0x01
T1D90 000:087.362 JLINK_GetHardwareVersion()
T1D90 000:087.375 - 0.018ms returns 97000
T1D90 000:087.388 JLINK_GetDLLVersion()
T1D90 000:087.403 - 0.021ms returns 75404
T1D90 000:087.416 JLINK_GetOEMString(...)
T1D90 000:087.432 JLINK_GetFirmwareString(...)
T1D90 000:087.444 - 0.019ms
T1D90 000:097.604 JLINK_GetDLLVersion()
T1D90 000:097.631 - 0.033ms returns 75404
T1D90 000:097.645 JLINK_GetCompileDateTime()
T1D90 000:097.657 - 0.018ms
T1D90 000:100.447 JLINK_GetFirmwareString(...)
T1D90 000:100.468 - 0.027ms
T1D90 000:103.267 JLINK_GetHardwareVersion()
T1D90 000:103.288 - 0.027ms returns 97000
T1D90 000:106.078 JLINK_GetSN()
T1D90 000:106.100 - 0.027ms returns 59765579
T1D90 000:108.809 JLINK_GetOEMString(...)
T1D90 000:114.290 JLINK_TIF_Select(JLINKARM_TIF_SWD)
T1D90 000:115.406 - 1.129ms returns 0x00
T1D90 000:115.428 JLINK_HasError()
T1D90 000:115.447 JLINK_SetSpeed(5000)
T1D90 000:115.564 - 0.124ms
T1D90 000:115.580 JLINK_GetId()
T1D90 000:118.911   InitTarget() start
T1D90 000:118.942    J-Link Script File: Executing InitTarget()
T1D90 000:131.558   InitTarget() end
T1D90 000:136.001   Found SW-DP with ID 0x1BA01477
T1D90 000:144.106   DPIDR: 0x1BA01477
T1D90 000:147.010   Scanning AP map to find all available APs
T1D90 000:151.409   AP[1]: Stopped AP scan as end of AP map has been reached
T1D90 000:154.243   AP[0]: AHB-AP (IDR: 0x14770011)
T1D90 000:157.064   Iterating through AP map to find AHB-AP to use
T1D90 000:161.716   AP[0]: Core found
T1D90 000:164.506   AP[0]: AHB-AP ROM base: 0xE00FF000
T1D90 000:168.601   CPUID register: 0x411FC231. Implementer code: 0x41 (ARM)
T1D90 000:171.424   Found Cortex-M3 r1p1, Little endian.
T1D90 000:272.705   -- Max. mem block: 0x00010C20
T1D90 000:272.844   CPU_ReadMem(4 bytes @ 0xE000EDF0)
T1D90 000:273.793   CPU_WriteMem(4 bytes @ 0xE000EDF0)
T1D90 000:274.205   CPU_ReadMem(4 bytes @ 0xE0002000)
T1D90 000:277.549   FPUnit: 6 code (BP) slots and 2 literal slots
T1D90 000:277.578   CPU_ReadMem(4 bytes @ 0xE000EDFC)
T1D90 000:278.211   CPU_WriteMem(4 bytes @ 0xE000EDFC)
T1D90 000:278.789   CPU_ReadMem(4 bytes @ 0xE0001000)
T1D90 000:279.210   CPU_WriteMem(4 bytes @ 0xE0001000)
T1D90 000:279.787   CPU_ReadMem(4 bytes @ 0xE000ED88)
T1D90 000:280.225   CPU_WriteMem(4 bytes @ 0xE000ED88)
T1D90 000:280.787   CPU_ReadMem(4 bytes @ 0xE000ED88)
T1D90 000:281.213   CPU_WriteMem(4 bytes @ 0xE000ED88)
T1D90 000:284.689   CoreSight components:
T1D90 000:287.595   ROMTbl[0] @ E00FF000
T1D90 000:287.624   CPU_ReadMem(64 bytes @ 0xE00FF000)
T1D90 000:288.281   CPU_ReadMem(32 bytes @ 0xE000EFE0)
T1D90 000:291.648   [0][0]: E000E000 CID B105E00D PID 001BB000 SCS
T1D90 000:291.677   CPU_ReadMem(32 bytes @ 0xE0001FE0)
T1D90 000:295.041   [0][1]: E0001000 CID B105E00D PID 001BB002 DWT
T1D90 000:295.069   CPU_ReadMem(32 bytes @ 0xE0002FE0)
T1D90 000:298.693   [0][2]: E0002000 CID B105E00D PID 000BB003 FPB
T1D90 000:298.722   CPU_ReadMem(32 bytes @ 0xE0000FE0)
T1D90 000:302.095   [0][3]: E0000000 CID B105E00D PID 001BB001 ITM
T1D90 000:302.127   CPU_ReadMem(32 bytes @ 0xE0040FE0)
T1D90 000:305.625   [0][4]: E0040000 CID B105900D PID 001BB923 TPIU-Lite
T1D90 000:305.653   CPU_ReadMem(32 bytes @ 0xE0041FE0)
T1D90 000:309.536   [0][5]: E0041000 CID B105900D PID 101BB924 ETM-M3
T1D90 000:309.806 - 194.234ms returns 0x1BA01477
T1D90 000:309.827 JLINK_GetDLLVersion()
T1D90 000:309.839 - 0.018ms returns 75404
T1D90 000:309.853 JLINK_CORE_GetFound()
T1D90 000:309.865 - 0.018ms returns 0x30000FF
T1D90 000:309.909 JLINK_GetDebugInfo(0x100 = JLINKARM_ROM_TABLE_ADDR_INDEX)
T1D90 000:309.923   Value=0xE00FF000
T1D90 000:309.940 - 0.036ms returns 0
T1D90 000:312.836 JLINK_GetDebugInfo(0x100 = JLINKARM_ROM_TABLE_ADDR_INDEX)
T1D90 000:312.858   Value=0xE00FF000
T1D90 000:312.876 - 0.045ms returns 0
T1D90 000:312.889 JLINK_GetDebugInfo(0x101 = JLINKARM_DEBUG_INFO_ETM_ADDR_INDEX)
T1D90 000:312.902   Value=0xE0041000
T1D90 000:312.920 - 0.036ms returns 0
T1D90 000:312.934 JLINK_ReadMemEx(0xE0041FD0, 0x20 Bytes, Flags = 0x02000004)
T1D90 000:312.964   CPU_ReadMem(32 bytes @ 0xE0041FD0)
T1D90 000:313.829   Data:  04 00 00 00 00 00 00 00 00 00 00 00 00 00 00 00 ...
T1D90 000:313.849 - 0.920ms returns 32 (0x20)
T1D90 000:313.863 JLINK_GetDebugInfo(0x102 = JLINKARM_DEBUG_INFO_MTB_ADDR_INDEX)
T1D90 000:313.876   Value=0x00000000
T1D90 000:313.894 - 0.036ms returns 0
T1D90 000:313.907 JLINK_GetDebugInfo(0x103 = JLINKARM_DEBUG_INFO_TPIU_ADDR_INDEX)
T1D90 000:313.919   Value=0xE0040000
T1D90 000:313.936 - 0.035ms returns 0
T1D90 000:313.949 JLINK_GetDebugInfo(0x104 = JLINKARM_DEBUG_INFO_ITM_ADDR_INDEX)
T1D90 000:313.962   Value=0xE0000000
T1D90 000:313.979 - 0.035ms returns 0
T1D90 000:313.992 JLINK_GetDebugInfo(0x105 = JLINKARM_DEBUG_INFO_DWT_ADDR_INDEX)
T1D90 000:314.004   Value=0xE0001000
T1D90 000:314.022 - 0.035ms returns 0
T1D90 000:314.035 JLINK_GetDebugInfo(0x106 = JLINKARM_DEBUG_INFO_FPB_ADDR_INDEX)
T1D90 000:314.047   Value=0xE0002000
T1D90 000:314.065 - 0.035ms returns 0
T1D90 000:314.078 JLINK_GetDebugInfo(0x107 = JLINKARM_DEBUG_INFO_NVIC_ADDR_INDEX)
T1D90 000:314.090   Value=0xE000E000
T1D90 000:314.108 - 0.036ms returns 0
T1D90 000:314.121 JLINK_GetDebugInfo(0x10C = JLINKARM_DEBUG_INFO_DBG_ADDR_INDEX)
T1D90 000:314.133   Value=0xE000EDF0
T1D90 000:314.150 - 0.035ms returns 0
T1D90 000:314.163 JLINK_GetDebugInfo(0x01 = Unknown)
T1D90 000:314.176   Value=0x00000000
T1D90 000:314.198 - 0.041ms returns 0
T1D90 000:314.212 JLINK_ReadMemU32(0xE000ED00, 0x1 Items)
T1D90 000:314.227   CPU_ReadMem(4 bytes @ 0xE000ED00)
T1D90 000:314.648   Data:  31 C2 1F 41
T1D90 000:314.668   Debug reg: CPUID
T1D90 000:314.685 - 0.479ms returns 1 (0x1)
T1D90 000:314.699 JLINK_GetDebugInfo(0x10F = JLINKARM_DEBUG_INFO_HAS_CORTEX_M_SECURITY_EXT_INDEX)
T1D90 000:314.711   Value=0x00000000
T1D90 000:314.729 - 0.036ms returns 0
T1D90 000:314.742 JLINK_HasError()
T1D90 000:314.756 JLINK_SetResetType(JLINKARM_CM3_RESET_TYPE_NORMAL)
T1D90 000:314.768 - 0.018ms returns JLINKARM_CM3_RESET_TYPE_NORMAL
T1D90 000:314.781 JLINK_Reset()
T1D90 000:314.801   CPU is running
T1D90 000:314.820   CPU_WriteMem(4 bytes @ 0xE000EDF0)
T1D90 000:315.213   CPU is running
T1D90 000:315.233   CPU_WriteMem(4 bytes @ 0xE000EDFC)
T1D90 000:318.638   Reset: Halt core after reset via DEMCR.VC_CORERESET.
T1D90 000:322.797   Reset: Reset device via AIRCR.SYSRESETREQ.
T1D90 000:322.826   CPU is running
T1D90 000:322.845   CPU_WriteMem(4 bytes @ 0xE000ED0C)
T1D90 000:376.729   CPU_ReadMem(4 bytes @ 0xE000EDF0)
T1D90 000:377.232   CPU_ReadMem(4 bytes @ 0xE000EDF0)
T1D90 000:377.802   CPU is running
T1D90 000:377.825   CPU_WriteMem(4 bytes @ 0xE000EDF0)
T1D90 000:378.219   CPU is running
T1D90 000:378.238   CPU_WriteMem(4 bytes @ 0xE000EDFC)
T1D90 000:384.261   CPU_ReadMem(4 bytes @ 0xE000EDF0)
T1D90 000:386.915   CPU_WriteMem(4 bytes @ 0xE0002000)
T1D90 000:387.797   CPU_ReadMem(4 bytes @ 0xE000EDFC)
T1D90 000:389.221   CPU_ReadMem(4 bytes @ 0xE0001000)
T1D90 000:389.802 - 75.028ms
T1D90 000:389.823 JLINK_Halt()
T1D90 000:389.836 - 0.018ms returns 0x00
T1D90 000:389.850 JLINK_ReadMemU32(0xE000EDF0, 0x1 Items)
T1D90 000:389.869   CPU_ReadMem(4 bytes @ 0xE000EDF0)
T1D90 000:390.225   Data:  03 00 03 00
T1D90 000:390.253   Debug reg: DHCSR
T1D90 000:390.273 - 0.428ms returns 1 (0x1)
T1D90 000:390.290 JLINK_WriteU32_64(0xE000EDF0, 0xA05F0003)
T1D90 000:390.305   Debug reg: DHCSR
T1D90 000:390.524   CPU_WriteMem(4 bytes @ 0xE000EDF0)
T1D90 000:390.802 - 0.519ms returns 0 (0x00000000)
T1D90 000:390.818 JLINK_WriteU32_64(0xE000EDFC, 0x01000000)
T1D90 000:390.831   Debug reg: DEMCR
T1D90 000:390.852   CPU_WriteMem(4 bytes @ 0xE000EDFC)
T1D90 000:391.221 - 0.410ms returns 0 (0x00000000)
T1D90 000:402.509 JLINK_GetHWStatus(...)
T1D90 000:402.721 - 0.219ms returns 0
T1D90 000:411.072 JLINK_GetNumBPUnits(Type = 0xFFFFFF00)
T1D90 000:411.094 - 0.029ms returns 0x06
T1D90 000:411.108 JLINK_GetNumBPUnits(Type = 0xF0)
T1D90 000:411.120 - 0.018ms returns 0x2000
T1D90 000:411.134 JLINK_GetNumWPUnits()
T1D90 000:411.146 - 0.017ms returns 4
T1D90 000:419.350 JLINK_GetSpeed()
T1D90 000:419.371 - 0.027ms returns 4000
T1D90 000:424.819 JLINK_ReadMemU32(0xE000E004, 0x1 Items)
T1D90 000:424.851   CPU_ReadMem(4 bytes @ 0xE000E004)
T1D90 000:425.243   Data:  01 00 00 00
T1D90 000:425.263 - 0.449ms returns 1 (0x1)
T1D90 000:425.277 JLINK_ReadMemU32(0xE000E004, 0x1 Items)
T1D90 000:425.292   CPU_ReadMem(4 bytes @ 0xE000E004)
T1D90 000:425.811   Data:  01 00 00 00
T1D90 000:425.840 - 0.569ms returns 1 (0x1)
T1D90 000:425.855 JLINK_WriteMemEx(0xE0001000, 0x0000001C Bytes, Flags = 0x02000004)
T1D90 000:425.868   Data:  01 00 00 00 00 00 00 00 00 00 00 00 00 00 00 00 ...
T1D90 000:425.892   CPU_WriteMem(28 bytes @ 0xE0001000)
T1D90 000:426.660 - 0.812ms returns 0x1C
T1D90 000:426.678 JLINK_Halt()
T1D90 000:426.691 - 0.018ms returns 0x00
T1D90 000:426.703 JLINK_IsHalted()
T1D90 000:426.716 - 0.018ms returns TRUE
T1D90 000:428.909 JLINK_WriteMem(0x20000000, 0x164 Bytes, ...)
T1D90 000:428.927   Data:  00 BE 0A E0 0D 78 2D 06 68 40 08 24 40 00 00 D3 ...
T1D90 000:429.121   CPU_WriteMem(356 bytes @ 0x20000000)
T1D90 000:431.808 - 2.912ms returns 0x164
T1D90 000:431.851 JLINK_HasError()
T1D90 000:431.866 JLINK_WriteReg(R0, 0x08000000)
T1D90 000:431.885 - 0.025ms returns 0
T1D90 000:431.898 JLINK_WriteReg(R1, 0x007A1200)
T1D90 000:431.911 - 0.018ms returns 0
T1D90 000:431.924 JLINK_WriteReg(R2, 0x00000001)
T1D90 000:431.936 - 0.018ms returns 0
T1D90 000:431.949 JLINK_WriteReg(R3, 0x00000000)
T1D90 000:431.962 - 0.018ms returns 0
T1D90 000:431.975 JLINK_WriteReg(R4, 0x00000000)
T1D90 000:431.987 - 0.018ms returns 0
T1D90 000:432.000 JLINK_WriteReg(R5, 0x00000000)
T1D90 000:432.012 - 0.018ms returns 0
T1D90 000:432.025 JLINK_WriteReg(R6, 0x00000000)
T1D90 000:432.040 - 0.021ms returns 0
T1D90 000:432.053 JLINK_WriteReg(R7, 0x00000000)
T1D90 000:432.065 - 0.018ms returns 0
T1D90 000:432.078 JLINK_WriteReg(R8, 0x00000000)
T1D90 000:432.094 - 0.021ms returns 0
T1D90 000:432.107 JLINK_WriteReg(R9, 0x20000160)
T1D90 000:432.119 - 0.018ms returns 0
T1D90 000:432.133 JLINK_WriteReg(R10, 0x00000000)
T1D90 000:432.145 - 0.018ms returns 0
T1D90 000:432.158 JLINK_WriteReg(R11, 0x00000000)
T1D90 000:432.170 - 0.018ms returns 0
T1D90 000:432.183 JLINK_WriteReg(R12, 0x00000000)
T1D90 000:432.199 - 0.023ms returns 0
T1D90 000:432.214 JLINK_WriteReg(R13 (SP), 0x20001000)
T1D90 000:432.227 - 0.019ms returns 0
T1D90 000:432.240 JLINK_WriteReg(R14, 0x20000001)
T1D90 000:432.252 - 0.018ms returns 0
T1D90 000:432.265 JLINK_WriteReg(R15 (PC), 0x20000038)
T1D90 000:432.280 - 0.020ms returns 0
T1D90 000:432.293 JLINK_WriteReg(XPSR, 0x01000000)
T1D90 000:432.307 - 0.020ms returns 0
T1D90 000:432.320 JLINK_WriteReg(MSP, 0x20001000)
T1D90 000:432.333 - 0.018ms returns 0
T1D90 000:432.345 JLINK_WriteReg(PSP, 0x20001000)
T1D90 000:432.359 - 0.019ms returns 0
T1D90 000:432.372 JLINK_WriteReg(CFBP, 0x00000000)
T1D90 000:432.384 - 0.018ms returns 0
T1D90 000:432.397 JLINK_SetBPEx(Addr = 0x20000000, Type = 0xFFFFFFF2)
T1D90 000:432.415   CPU_ReadMem(2 bytes @ 0x20000000)
T1D90 000:432.811 - 0.421ms returns 0x00000001
T1D90 000:432.827 JLINK_Go()
T1D90 000:432.843   CPU_WriteMem(2 bytes @ 0x20000000)
T1D90 000:433.232   CPU_ReadMem(4 bytes @ 0xE0001000)
T1D90 000:434.230   CPU_WriteMem(4 bytes @ 0xE0002008)
T1D90 000:434.249   CPU_WriteMem(4 bytes @ 0xE000200C)
T1D90 000:434.267   CPU_WriteMem(4 bytes @ 0xE0002010)
T1D90 000:434.286   CPU_WriteMem(4 bytes @ 0xE0002014)
T1D90 000:434.305   CPU_WriteMem(4 bytes @ 0xE0002018)
T1D90 000:434.323   CPU_WriteMem(4 bytes @ 0xE000201C)
T1D90 000:435.822   CPU_WriteMem(4 bytes @ 0xE0001004)
T1D90 000:438.803 - 5.992ms
T1D90 000:438.829 JLINK_IsHalted()
T1D90 000:440.894   CPU_ReadMem(2 bytes @ 0x20000000)
T1D90 000:441.225 - 2.403ms returns TRUE
T1D90 000:441.240 JLINK_ReadReg(R15 (PC))
T1D90 000:441.255 - 0.020ms returns 0x20000000
T1D90 000:441.268 JLINK_ClrBPEx(BPHandle = 0x00000001)
T1D90 000:441.281 - 0.018ms returns 0x00
T1D90 000:441.294 JLINK_ReadReg(R0)
T1D90 000:441.306 - 0.020ms returns 0x00000000
T1D90 000:441.572 JLINK_HasError()
T1D90 000:441.592 JLINK_WriteReg(R0, 0x08000000)
T1D90 000:441.606 - 0.020ms returns 0
T1D90 000:441.619 JLINK_WriteReg(R1, 0x007A1200)
T1D90 000:441.632 - 0.019ms returns 0
T1D90 000:441.645 JLINK_WriteReg(R2, 0x00000001)
T1D90 000:441.658 - 0.023ms returns 0
T1D90 000:441.675 JLINK_WriteReg(R3, 0x00000000)
T1D90 000:441.688 - 0.018ms returns 0
T1D90 000:441.701 JLINK_WriteReg(R4, 0x00000000)
T1D90 000:441.713 - 0.018ms returns 0
T1D90 000:441.726 JLINK_WriteReg(R5, 0x00000000)
T1D90 000:441.739 - 0.018ms returns 0
T1D90 000:441.752 JLINK_WriteReg(R6, 0x00000000)
T1D90 000:441.764 - 0.018ms returns 0
T1D90 000:441.777 JLINK_WriteReg(R7, 0x00000000)
T1D90 000:441.790 - 0.018ms returns 0
T1D90 000:441.803 JLINK_WriteReg(R8, 0x00000000)
T1D90 000:441.815 - 0.018ms returns 0
T1D90 000:441.828 JLINK_WriteReg(R9, 0x20000160)
T1D90 000:441.841 - 0.019ms returns 0
T1D90 000:441.854 JLINK_WriteReg(R10, 0x00000000)
T1D90 000:441.867 - 0.018ms returns 0
T1D90 000:441.880 JLINK_WriteReg(R11, 0x00000000)
T1D90 000:441.893 - 0.019ms returns 0
T1D90 000:441.906 JLINK_WriteReg(R12, 0x00000000)
T1D90 000:441.919 - 0.018ms returns 0
T1D90 000:441.932 JLINK_WriteReg(R13 (SP), 0x20001000)
T1D90 000:441.945 - 0.019ms returns 0
T1D90 000:441.958 JLINK_WriteReg(R14, 0x20000001)
T1D90 000:441.971 - 0.018ms returns 0
T1D90 000:441.983 JLINK_WriteReg(R15 (PC), 0x2000007C)
T1D90 000:441.996 - 0.018ms returns 0
T1D90 000:442.009 JLINK_WriteReg(XPSR, 0x01000000)
T1D90 000:442.021 - 0.018ms returns 0
T1D90 000:442.034 JLINK_WriteReg(MSP, 0x20001000)
T1D90 000:442.047 - 0.018ms returns 0
T1D90 000:442.060 JLINK_WriteReg(PSP, 0x20001000)
T1D90 000:442.074 - 0.020ms returns 0
T1D90 000:442.087 JLINK_WriteReg(CFBP, 0x00000000)
T1D90 000:442.100 - 0.018ms returns 0
T1D90 000:442.112 JLINK_SetBPEx(Addr = 0x20000000, Type = 0xFFFFFFF2)
T1D90 000:442.126 - 0.019ms returns 0x00000002
T1D90 000:442.139 JLINK_Go()
T1D90 000:442.157   CPU_ReadMem(4 bytes @ 0xE0001000)
T1D90 000:445.229 - 3.105ms
T1D90 000:445.254 JLINK_IsHalted()
T1D90 000:445.811 - 0.572ms returns FALSE
T1D90 000:445.835 JLINK_HasError()
T1D90 000:455.327 JLINK_IsHalted()
T1D90 000:456.229 - 0.909ms returns FALSE
T1D90 000:456.305 JLINK_HasError()
T1D90 000:458.346 JLINK_IsHalted()
T1D90 000:458.652 - 0.314ms returns FALSE
T1D90 000:458.668 JLINK_HasError()
T1D90 000:460.333 JLINK_IsHalted()
T1D90 000:460.656 - 0.331ms returns FALSE
T1D90 000:460.673 JLINK_HasError()
T1D90 000:462.332 JLINK_IsHalted()
T1D90 000:462.813 - 0.495ms returns FALSE
T1D90 000:462.836 JLINK_HasError()
T1D90 000:464.336 JLINK_IsHalted()
T1D90 000:464.649 - 0.321ms returns FALSE
T1D90 000:464.666 JLINK_HasError()
T1D90 000:466.335 JLINK_IsHalted()
T1D90 000:466.805 - 0.477ms returns FALSE
T1D90 000:466.821 JLINK_HasError()
T1D90 000:468.336 JLINK_IsHalted()
T1D90 000:470.896   CPU_ReadMem(2 bytes @ 0x20000000)
T1D90 000:471.229 - 2.899ms returns TRUE
T1D90 000:471.244 JLINK_ReadReg(R15 (PC))
T1D90 000:471.257 - 0.019ms returns 0x20000000
T1D90 000:471.271 JLINK_ClrBPEx(BPHandle = 0x00000002)
T1D90 000:471.283 - 0.018ms returns 0x00
T1D90 000:471.297 JLINK_ReadReg(R0)
T1D90 000:471.309 - 0.018ms returns 0x00000000
T1D90 000:523.047 JLINK_HasError()
T1D90 000:523.073 JLINK_WriteReg(R0, 0x00000001)
T1D90 000:523.089 - 0.022ms returns 0
T1D90 000:523.103 JLINK_WriteReg(R1, 0x007A1200)
T1D90 000:523.116 - 0.018ms returns 0
T1D90 000:523.129 JLINK_WriteReg(R2, 0x00000001)
T1D90 000:523.141 - 0.018ms returns 0
T1D90 000:523.154 JLINK_WriteReg(R3, 0x00000000)
T1D90 000:523.167 - 0.018ms returns 0
T1D90 000:523.180 JLINK_WriteReg(R4, 0x00000000)
T1D90 000:523.192 - 0.018ms returns 0
T1D90 000:523.205 JLINK_WriteReg(R5, 0x00000000)
T1D90 000:523.218 - 0.018ms returns 0
T1D90 000:523.231 JLINK_WriteReg(R6, 0x00000000)
T1D90 000:523.243 - 0.018ms returns 0
T1D90 000:523.256 JLINK_WriteReg(R7, 0x00000000)
T1D90 000:523.269 - 0.018ms returns 0
T1D90 000:523.281 JLINK_WriteReg(R8, 0x00000000)
T1D90 000:523.294 - 0.018ms returns 0
T1D90 000:523.307 JLINK_WriteReg(R9, 0x20000160)
T1D90 000:523.319 - 0.018ms returns 0
T1D90 000:523.332 JLINK_WriteReg(R10, 0x00000000)
T1D90 000:523.345 - 0.019ms returns 0
T1D90 000:523.361 JLINK_WriteReg(R11, 0x00000000)
T1D90 000:523.374 - 0.018ms returns 0
T1D90 000:523.389 JLINK_WriteReg(R12, 0x00000000)
T1D90 000:523.402 - 0.018ms returns 0
T1D90 000:523.415 JLINK_WriteReg(R13 (SP), 0x20001000)
T1D90 000:523.428 - 0.019ms returns 0
T1D90 000:523.441 JLINK_WriteReg(R14, 0x20000001)
T1D90 000:523.453 - 0.018ms returns 0
T1D90 000:523.466 JLINK_WriteReg(R15 (PC), 0x2000006A)
T1D90 000:523.479 - 0.018ms returns 0
T1D90 000:523.492 JLINK_WriteReg(XPSR, 0x01000000)
T1D90 000:523.504 - 0.018ms returns 0
T1D90 000:523.517 JLINK_WriteReg(MSP, 0x20001000)
T1D90 000:523.530 - 0.018ms returns 0
T1D90 000:523.543 JLINK_WriteReg(PSP, 0x20001000)
T1D90 000:523.555 - 0.018ms returns 0
T1D90 000:523.568 JLINK_WriteReg(CFBP, 0x00000000)
T1D90 000:523.581 - 0.018ms returns 0
T1D90 000:523.594 JLINK_SetBPEx(Addr = 0x20000000, Type = 0xFFFFFFF2)
T1D90 000:523.607 - 0.019ms returns 0x00000003
T1D90 000:523.621 JLINK_Go()
T1D90 000:523.641   CPU_ReadMem(4 bytes @ 0xE0001000)
T1D90 000:526.819 - 3.212ms
T1D90 000:526.841 JLINK_IsHalted()
T1D90 000:528.910   CPU_ReadMem(2 bytes @ 0x20000000)
T1D90 000:529.237 - 2.403ms returns TRUE
T1D90 000:529.253 JLINK_ReadReg(R15 (PC))
T1D90 000:529.267 - 0.020ms returns 0x20000000
T1D90 000:529.281 JLINK_ClrBPEx(BPHandle = 0x00000003)
T1D90 000:529.293 - 0.018ms returns 0x00
T1D90 000:529.309 JLINK_ReadReg(R0)
T1D90 000:529.322 - 0.018ms returns 0x00000000
T1D90 000:534.327 JLINK_WriteMem(0x20000000, 0x164 Bytes, ...)
T1D90 000:534.346   Data:  00 BE 0A E0 0D 78 2D 06 68 40 08 24 40 00 00 D3 ...
T1D90 000:534.370   CPU_WriteMem(356 bytes @ 0x20000000)
T1D90 000:536.242 - 1.929ms returns 0x164
T1D90 000:536.284 JLINK_HasError()
T1D90 000:536.299 JLINK_WriteReg(R0, 0x08000000)
T1D90 000:536.313 - 0.020ms returns 0
T1D90 000:536.326 JLINK_WriteReg(R1, 0x007A1200)
T1D90 000:536.338 - 0.018ms returns 0
T1D90 000:536.351 JLINK_WriteReg(R2, 0x00000002)
T1D90 000:536.364 - 0.018ms returns 0
T1D90 000:536.377 JLINK_WriteReg(R3, 0x00000000)
T1D90 000:536.392 - 0.025ms returns 0
T1D90 000:536.409 JLINK_WriteReg(R4, 0x00000000)
T1D90 000:536.422 - 0.018ms returns 0
T1D90 000:536.435 JLINK_WriteReg(R5, 0x00000000)
T1D90 000:536.447 - 0.018ms returns 0
T1D90 000:536.460 JLINK_WriteReg(R6, 0x00000000)
T1D90 000:536.473 - 0.018ms returns 0
T1D90 000:536.486 JLINK_WriteReg(R7, 0x00000000)
T1D90 000:536.498 - 0.018ms returns 0
T1D90 000:536.512 JLINK_WriteReg(R8, 0x00000000)
T1D90 000:536.524 - 0.018ms returns 0
T1D90 000:536.537 JLINK_WriteReg(R9, 0x20000160)
T1D90 000:536.553 - 0.021ms returns 0
T1D90 000:536.566 JLINK_WriteReg(R10, 0x00000000)
T1D90 000:536.578 - 0.018ms returns 0
T1D90 000:536.591 JLINK_WriteReg(R11, 0x00000000)
T1D90 000:536.604 - 0.018ms returns 0
T1D90 000:536.616 JLINK_WriteReg(R12, 0x00000000)
T1D90 000:536.629 - 0.018ms returns 0
T1D90 000:536.642 JLINK_WriteReg(R13 (SP), 0x20001000)
T1D90 000:536.655 - 0.019ms returns 0
T1D90 000:536.668 JLINK_WriteReg(R14, 0x20000001)
T1D90 000:536.680 - 0.018ms returns 0
T1D90 000:536.693 JLINK_WriteReg(R15 (PC), 0x20000038)
T1D90 000:536.706 - 0.018ms returns 0
T1D90 000:536.719 JLINK_WriteReg(XPSR, 0x01000000)
T1D90 000:536.731 - 0.018ms returns 0
T1D90 000:536.744 JLINK_WriteReg(MSP, 0x20001000)
T1D90 000:536.757 - 0.018ms returns 0
T1D90 000:536.769 JLINK_WriteReg(PSP, 0x20001000)
T1D90 000:536.782 - 0.018ms returns 0
T1D90 000:536.795 JLINK_WriteReg(CFBP, 0x00000000)
T1D90 000:536.807 - 0.018ms returns 0
T1D90 000:536.820 JLINK_SetBPEx(Addr = 0x20000000, Type = 0xFFFFFFF2)
T1D90 000:536.836   CPU_ReadMem(2 bytes @ 0x20000000)
T1D90 000:537.244 - 0.431ms returns 0x00000004
T1D90 000:537.259 JLINK_Go()
T1D90 000:537.274   CPU_WriteMem(2 bytes @ 0x20000000)
T1D90 000:537.824   CPU_ReadMem(4 bytes @ 0xE0001000)
T1D90 000:540.821 - 3.577ms
T1D90 000:540.847 JLINK_IsHalted()
T1D90 000:542.907   CPU_ReadMem(2 bytes @ 0x20000000)
T1D90 000:543.238 - 2.397ms returns TRUE
T1D90 000:543.254 JLINK_ReadReg(R15 (PC))
T1D90 000:543.268 - 0.020ms returns 0x20000000
T1D90 000:543.282 JLINK_ClrBPEx(BPHandle = 0x00000004)
T1D90 000:543.296 - 0.019ms returns 0x00
T1D90 000:543.310 JLINK_ReadReg(R0)
T1D90 000:543.322 - 0.018ms returns 0x00000000
T1D90 000:543.552 JLINK_WriteMem(0x20000164, 0x29C Bytes, ...)
T1D90 000:543.571   Data:  80 91 00 20 49 01 00 08 65 59 00 08 99 42 00 08 ...
T1D90 000:543.595   CPU_WriteMem(668 bytes @ 0x20000164)
T1D90 000:546.674 - 3.132ms returns 0x29C
T1D90 000:546.694 JLINK_WriteMem(0x20000400, 0x164 Bytes, ...)
T1D90 000:546.707   Data:  24 B1 00 21 00 F8 01 1B 04 E0 04 46 40 1C 06 78 ...
T1D90 000:546.730   CPU_WriteMem(356 bytes @ 0x20000400)
T1D90 000:549.822 - 3.141ms returns 0x164
T1D90 000:549.845 JLINK_HasError()
T1D90 000:549.858 JLINK_WriteReg(R0, 0x08000000)
T1D90 000:549.873 - 0.020ms returns 0
T1D90 000:549.886 JLINK_WriteReg(R1, 0x00000400)
T1D90 000:549.899 - 0.018ms returns 0
T1D90 000:549.912 JLINK_WriteReg(R2, 0x20000164)
T1D90 000:549.924 - 0.018ms returns 0
T1D90 000:549.937 JLINK_WriteReg(R3, 0x00000000)
T1D90 000:549.950 - 0.018ms returns 0
T1D90 000:549.963 JLINK_WriteReg(R4, 0x00000000)
T1D90 000:549.975 - 0.018ms returns 0
T1D90 000:549.988 JLINK_WriteReg(R5, 0x00000000)
T1D90 000:550.000 - 0.018ms returns 0
T1D90 000:550.015 JLINK_WriteReg(R6, 0x00000000)
T1D90 000:550.029 - 0.020ms returns 0
T1D90 000:550.042 JLINK_WriteReg(R7, 0x00000000)
T1D90 000:550.055 - 0.018ms returns 0
T1D90 000:550.068 JLINK_WriteReg(R8, 0x00000000)
T1D90 000:550.080 - 0.019ms returns 0
T1D90 000:550.094 JLINK_WriteReg(R9, 0x20000160)
T1D90 000:550.106 - 0.018ms returns 0
T1D90 000:550.119 JLINK_WriteReg(R10, 0x00000000)
T1D90 000:550.132 - 0.018ms returns 0
T1D90 000:550.145 JLINK_WriteReg(R11, 0x00000000)
T1D90 000:550.158 - 0.019ms returns 0
T1D90 000:550.171 JLINK_WriteReg(R12, 0x00000000)
T1D90 000:550.184 - 0.018ms returns 0
T1D90 000:550.197 JLINK_WriteReg(R13 (SP), 0x20001000)
T1D90 000:550.209 - 0.018ms returns 0
T1D90 000:550.222 JLINK_WriteReg(R14, 0x20000001)
T1D90 000:550.235 - 0.021ms returns 0
T1D90 000:550.252 JLINK_WriteReg(R15 (PC), 0x200000F4)
T1D90 000:550.265 - 0.018ms returns 0
T1D90 000:550.278 JLINK_WriteReg(XPSR, 0x01000000)
T1D90 000:550.291 - 0.018ms returns 0
T1D90 000:550.304 JLINK_WriteReg(MSP, 0x20001000)
T1D90 000:550.316 - 0.018ms returns 0
T1D90 000:550.329 JLINK_WriteReg(PSP, 0x20001000)
T1D90 000:550.341 - 0.018ms returns 0
T1D90 000:550.354 JLINK_WriteReg(CFBP, 0x00000000)
T1D90 000:550.367 - 0.018ms returns 0
T1D90 000:550.380 JLINK_SetBPEx(Addr = 0x20000000, Type = 0xFFFFFFF2)
T1D90 000:550.393 - 0.019ms returns 0x00000005
T1D90 000:550.406 JLINK_Go()
T1D90 000:550.429   CPU_ReadMem(4 bytes @ 0xE0001000)
T1D90 000:553.820 - 3.423ms
T1D90 000:553.837 JLINK_IsHalted()
T1D90 000:554.241 - 0.410ms returns FALSE
T1D90 000:554.256 JLINK_HasError()
T1D90 000:559.424 JLINK_IsHalted()
T1D90 000:559.714 - 0.298ms returns FALSE
T1D90 000:559.731 JLINK_HasError()
T1D90 000:561.423 JLINK_IsHalted()
T1D90 000:561.713 - 0.297ms returns FALSE
T1D90 000:561.728 JLINK_HasError()
T1D90 000:563.424 JLINK_IsHalted()
T1D90 000:563.711 - 0.294ms returns FALSE
T1D90 000:563.726 JLINK_HasError()
T1D90 000:565.429 JLINK_IsHalted()
T1D90 000:565.710 - 0.289ms returns FALSE
T1D90 000:565.727 JLINK_HasError()
T1D90 000:567.429 JLINK_IsHalted()
T1D90 000:567.710 - 0.288ms returns FALSE
T1D90 000:567.726 JLINK_HasError()
T1D90 000:569.430 JLINK_IsHalted()
T1D90 000:569.709 - 0.286ms returns FALSE
T1D90 000:569.724 JLINK_HasError()
T1D90 000:571.431 JLINK_IsHalted()
T1D90 000:571.710 - 0.286ms returns FALSE
T1D90 000:571.725 JLINK_HasError()
T1D90 000:573.433 JLINK_IsHalted()
T1D90 000:573.710 - 0.284ms returns FALSE
T1D90 000:573.725 JLINK_HasError()
T1D90 000:575.435 JLINK_IsHalted()
T1D90 000:575.710 - 0.281ms returns FALSE
T1D90 000:575.725 JLINK_HasError()
T1D90 000:577.437 JLINK_IsHalted()
T1D90 000:577.711 - 0.281ms returns FALSE
T1D90 000:577.725 JLINK_HasError()
T1D90 000:579.437 JLINK_IsHalted()
T1D90 000:579.710 - 0.280ms returns FALSE
T1D90 000:579.724 JLINK_HasError()
T1D90 000:581.444 JLINK_IsHalted()
T1D90 000:581.713 - 0.276ms returns FALSE
T1D90 000:581.728 JLINK_HasError()
T1D90 000:583.442 JLINK_IsHalted()
T1D90 000:583.711 - 0.275ms returns FALSE
T1D90 000:583.725 JLINK_HasError()
T1D90 000:585.444 JLINK_IsHalted()
T1D90 000:587.910   CPU_ReadMem(2 bytes @ 0x20000000)
T1D90 000:588.243 - 2.806ms returns TRUE
T1D90 000:588.258 JLINK_ReadReg(R15 (PC))
T1D90 000:588.272 - 0.019ms returns 0x20000000
T1D90 000:588.285 JLINK_ClrBPEx(BPHandle = 0x00000005)
T1D90 000:588.298 - 0.018ms returns 0x00
T1D90 000:588.311 JLINK_ReadReg(R0)
T1D90 000:588.324 - 0.019ms returns 0x00000000
T1D90 000:588.699 JLINK_WriteMem(0x20000164, 0x29C Bytes, ...)
T1D90 000:588.719   Data:  2B 46 00 F0 2B FA 03 B0 BD E8 F0 8F 40 46 21 46 ...
T1D90 000:588.741   CPU_WriteMem(668 bytes @ 0x20000164)
T1D90 000:592.249 - 3.566ms returns 0x29C
T1D90 000:592.275 JLINK_WriteMem(0x20000400, 0x164 Bytes, ...)
T1D90 000:592.289   Data:  41 46 47 46 22 46 FF F7 63 FD 53 46 5A 46 C0 1A ...
T1D90 000:592.313   CPU_WriteMem(356 bytes @ 0x20000400)
T1D90 000:594.246 - 1.978ms returns 0x164
T1D90 000:594.264 JLINK_HasError()
T1D90 000:594.279 JLINK_WriteReg(R0, 0x08000400)
T1D90 000:594.293 - 0.020ms returns 0
T1D90 000:594.307 JLINK_WriteReg(R1, 0x00000400)
T1D90 000:594.319 - 0.018ms returns 0
T1D90 000:594.333 JLINK_WriteReg(R2, 0x20000164)
T1D90 000:594.346 - 0.018ms returns 0
T1D90 000:594.359 JLINK_WriteReg(R3, 0x00000000)
T1D90 000:594.372 - 0.018ms returns 0
T1D90 000:594.385 JLINK_WriteReg(R4, 0x00000000)
T1D90 000:594.398 - 0.018ms returns 0
T1D90 000:594.411 JLINK_WriteReg(R5, 0x00000000)
T1D90 000:594.424 - 0.018ms returns 0
T1D90 000:594.437 JLINK_WriteReg(R6, 0x00000000)
T1D90 000:594.452 - 0.020ms returns 0
T1D90 000:594.465 JLINK_WriteReg(R7, 0x00000000)
T1D90 000:594.478 - 0.018ms returns 0
T1D90 000:594.491 JLINK_WriteReg(R8, 0x00000000)
T1D90 000:594.504 - 0.018ms returns 0
T1D90 000:594.517 JLINK_WriteReg(R9, 0x20000160)
T1D90 000:594.533 - 0.023ms returns 0
T1D90 000:594.548 JLINK_WriteReg(R10, 0x00000000)
T1D90 000:594.561 - 0.018ms returns 0
T1D90 000:594.574 JLINK_WriteReg(R11, 0x00000000)
T1D90 000:594.587 - 0.018ms returns 0
T1D90 000:594.600 JLINK_WriteReg(R12, 0x00000000)
T1D90 000:594.613 - 0.018ms returns 0
T1D90 000:594.627 JLINK_WriteReg(R13 (SP), 0x20001000)
T1D90 000:594.640 - 0.019ms returns 0
T1D90 000:594.653 JLINK_WriteReg(R14, 0x20000001)
T1D90 000:594.666 - 0.020ms returns 0
T1D90 000:594.682 JLINK_WriteReg(R15 (PC), 0x200000F4)
T1D90 000:594.694 - 0.018ms returns 0
T1D90 000:594.708 JLINK_WriteReg(XPSR, 0x01000000)
T1D90 000:594.720 - 0.018ms returns 0
T1D90 000:594.734 JLINK_WriteReg(MSP, 0x20001000)
T1D90 000:594.747 - 0.018ms returns 0
T1D90 000:594.760 JLINK_WriteReg(PSP, 0x20001000)
T1D90 000:594.773 - 0.018ms returns 0
T1D90 000:594.786 JLINK_WriteReg(CFBP, 0x00000000)
T1D90 000:594.799 - 0.018ms returns 0
T1D90 000:594.812 JLINK_SetBPEx(Addr = 0x20000000, Type = 0xFFFFFFF2)
T1D90 000:594.826 - 0.019ms returns 0x00000006
T1D90 000:594.840 JLINK_Go()
T1D90 000:594.857   CPU_ReadMem(4 bytes @ 0xE0001000)
T1D90 000:597.826 - 3.000ms
T1D90 000:597.849 JLINK_IsHalted()
T1D90 000:598.246 - 0.404ms returns FALSE
T1D90 000:598.262 JLINK_HasError()
T1D90 000:599.457 JLINK_IsHalted()
T1D90 000:599.717 - 0.275ms returns FALSE
T1D90 000:599.742 JLINK_HasError()
T1D90 000:601.458 JLINK_IsHalted()
T1D90 000:601.713 - 0.263ms returns FALSE
T1D90 000:601.729 JLINK_HasError()
T1D90 000:603.459 JLINK_IsHalted()
T1D90 000:603.714 - 0.262ms returns FALSE
T1D90 000:603.729 JLINK_HasError()
T1D90 000:605.463 JLINK_IsHalted()
T1D90 000:605.714 - 0.258ms returns FALSE
T1D90 000:605.729 JLINK_HasError()
T1D90 000:607.462 JLINK_IsHalted()
T1D90 000:607.715 - 0.259ms returns FALSE
T1D90 000:607.729 JLINK_HasError()
T1D90 000:609.465 JLINK_IsHalted()
T1D90 000:609.714 - 0.256ms returns FALSE
T1D90 000:609.729 JLINK_HasError()
T1D90 000:611.470 JLINK_IsHalted()
T1D90 000:612.255 - 0.792ms returns FALSE
T1D90 000:612.271 JLINK_HasError()
T1D90 000:613.469 JLINK_IsHalted()
T1D90 000:613.715 - 0.253ms returns FALSE
T1D90 000:613.730 JLINK_HasError()
T1D90 000:616.475 JLINK_IsHalted()
T1D90 000:616.827 - 0.360ms returns FALSE
T1D90 000:616.844 JLINK_HasError()
T1D90 000:618.475 JLINK_IsHalted()
T1D90 000:618.828 - 0.360ms returns FALSE
T1D90 000:618.843 JLINK_HasError()
T1D90 000:620.477 JLINK_IsHalted()
T1D90 000:620.828 - 0.367ms returns FALSE
T1D90 000:620.853 JLINK_HasError()
T1D90 000:622.478 JLINK_IsHalted()
T1D90 000:622.824 - 0.353ms returns FALSE
T1D90 000:622.840 JLINK_HasError()
T1D90 000:624.480 JLINK_IsHalted()
T1D90 000:624.826 - 0.353ms returns FALSE
T1D90 000:624.840 JLINK_HasError()
T1D90 000:626.483 JLINK_IsHalted()
T1D90 000:626.826 - 0.350ms returns FALSE
T1D90 000:626.842 JLINK_HasError()
T1D90 000:628.483 JLINK_IsHalted()
T1D90 000:630.915   CPU_ReadMem(2 bytes @ 0x20000000)
T1D90 000:631.249 - 2.772ms returns TRUE
T1D90 000:631.264 JLINK_ReadReg(R15 (PC))
T1D90 000:631.278 - 0.019ms returns 0x20000000
T1D90 000:631.291 JLINK_ClrBPEx(BPHandle = 0x00000006)
T1D90 000:631.303 - 0.018ms returns 0x00
T1D90 000:631.316 JLINK_ReadReg(R0)
T1D90 000:631.329 - 0.018ms returns 0x00000000
T1D90 000:631.721 JLINK_WriteMem(0x20000164, 0x29C Bytes, ...)
T1D90 000:631.740   Data:  97 FF 27 B1 39 68 A1 42 01 D1 C7 F8 00 80 71 05 ...
T1D90 000:631.763   CPU_WriteMem(668 bytes @ 0x20000164)
T1D90 000:634.686 - 2.981ms returns 0x29C
T1D90 000:634.711 JLINK_WriteMem(0x20000400, 0x164 Bytes, ...)
T1D90 000:634.724   Data:  20 46 01 F0 BF F8 03 E0 20 6A 01 6B 28 46 88 47 ...
T1D90 000:634.747   CPU_WriteMem(356 bytes @ 0x20000400)
T1D90 000:637.830 - 3.126ms returns 0x164
T1D90 000:637.845 JLINK_HasError()
T1D90 000:637.859 JLINK_WriteReg(R0, 0x08000800)
T1D90 000:637.872 - 0.019ms returns 0
T1D90 000:637.885 JLINK_WriteReg(R1, 0x00000400)
T1D90 000:637.898 - 0.018ms returns 0
T1D90 000:637.911 JLINK_WriteReg(R2, 0x20000164)
T1D90 000:637.923 - 0.071ms returns 0
T1D90 000:637.992 JLINK_WriteReg(R3, 0x00000000)
T1D90 000:638.005 - 0.019ms returns 0
T1D90 000:638.018 JLINK_WriteReg(R4, 0x00000000)
T1D90 000:638.030 - 0.018ms returns 0
T1D90 000:638.043 JLINK_WriteReg(R5, 0x00000000)
T1D90 000:638.056 - 0.021ms returns 0
T1D90 000:638.072 JLINK_WriteReg(R6, 0x00000000)
T1D90 000:638.084 - 0.018ms returns 0
T1D90 000:638.097 JLINK_WriteReg(R7, 0x00000000)
T1D90 000:638.110 - 0.018ms returns 0
T1D90 000:638.123 JLINK_WriteReg(R8, 0x00000000)
T1D90 000:638.136 - 0.018ms returns 0
T1D90 000:638.149 JLINK_WriteReg(R9, 0x20000160)
T1D90 000:638.161 - 0.018ms returns 0
T1D90 000:638.174 JLINK_WriteReg(R10, 0x00000000)
T1D90 000:638.186 - 0.018ms returns 0
T1D90 000:638.199 JLINK_WriteReg(R11, 0x00000000)
T1D90 000:638.212 - 0.018ms returns 0
T1D90 000:638.225 JLINK_WriteReg(R12, 0x00000000)
T1D90 000:638.237 - 0.018ms returns 0
T1D90 000:638.250 JLINK_WriteReg(R13 (SP), 0x20001000)
T1D90 000:638.263 - 0.019ms returns 0
T1D90 000:638.276 JLINK_WriteReg(R14, 0x20000001)
T1D90 000:638.289 - 0.018ms returns 0
T1D90 000:638.302 JLINK_WriteReg(R15 (PC), 0x200000F4)
T1D90 000:638.314 - 0.018ms returns 0
T1D90 000:638.328 JLINK_WriteReg(XPSR, 0x01000000)
T1D90 000:638.340 - 0.018ms returns 0
T1D90 000:638.354 JLINK_WriteReg(MSP, 0x20001000)
T1D90 000:638.366 - 0.018ms returns 0
T1D90 000:638.379 JLINK_WriteReg(PSP, 0x20001000)
T1D90 000:638.392 - 0.018ms returns 0
T1D90 000:638.405 JLINK_WriteReg(CFBP, 0x00000000)
T1D90 000:638.417 - 0.018ms returns 0
T1D90 000:638.430 JLINK_SetBPEx(Addr = 0x20000000, Type = 0xFFFFFFF2)
T1D90 000:638.444 - 0.019ms returns 0x00000007
T1D90 000:638.457 JLINK_Go()
T1D90 000:638.476   CPU_ReadMem(4 bytes @ 0xE0001000)
T1D90 000:641.831 - 3.387ms
T1D90 000:641.853 JLINK_IsHalted()
T1D90 000:642.255 - 0.415ms returns FALSE
T1D90 000:642.277 JLINK_HasError()
T1D90 000:643.498 JLINK_IsHalted()
T1D90 000:643.832 - 0.350ms returns FALSE
T1D90 000:643.857 JLINK_HasError()
T1D90 000:645.512 JLINK_IsHalted()
T1D90 000:645.828 - 0.336ms returns FALSE
T1D90 000:645.843 JLINK_HasError()
T1D90 000:647.502 JLINK_IsHalted()
T1D90 000:647.828 - 0.333ms returns FALSE
T1D90 000:647.845 JLINK_HasError()
T1D90 000:649.502 JLINK_IsHalted()
T1D90 000:649.828 - 0.332ms returns FALSE
T1D90 000:649.843 JLINK_HasError()
T1D90 000:651.502 JLINK_IsHalted()
T1D90 000:651.829 - 0.333ms returns FALSE
T1D90 000:651.843 JLINK_HasError()
T1D90 000:653.505 JLINK_IsHalted()
T1D90 000:653.828 - 0.329ms returns FALSE
T1D90 000:653.842 JLINK_HasError()
T1D90 000:655.506 JLINK_IsHalted()
T1D90 000:655.841 - 0.346ms returns FALSE
T1D90 000:655.861 JLINK_HasError()
T1D90 000:657.509 JLINK_IsHalted()
T1D90 000:657.829 - 0.326ms returns FALSE
T1D90 000:657.843 JLINK_HasError()
T1D90 000:659.513 JLINK_IsHalted()
T1D90 000:660.251 - 0.748ms returns FALSE
T1D90 000:660.270 JLINK_HasError()
T1D90 000:661.513 JLINK_IsHalted()
T1D90 000:661.830 - 0.323ms returns FALSE
T1D90 000:661.845 JLINK_HasError()
T1D90 000:663.515 JLINK_IsHalted()
T1D90 000:663.829 - 0.320ms returns FALSE
T1D90 000:663.843 JLINK_HasError()
T1D90 000:665.516 JLINK_IsHalted()
T1D90 000:665.831 - 0.321ms returns FALSE
T1D90 000:665.845 JLINK_HasError()
T1D90 000:667.518 JLINK_IsHalted()
T1D90 000:667.830 - 0.318ms returns FALSE
T1D90 000:667.844 JLINK_HasError()
T1D90 000:669.519 JLINK_IsHalted()
T1D90 000:669.830 - 0.318ms returns FALSE
T1D90 000:669.844 JLINK_HasError()
T1D90 000:671.570 JLINK_IsHalted()
T1D90 000:671.833 - 0.270ms returns FALSE
T1D90 000:671.848 JLINK_HasError()
T1D90 000:673.524 JLINK_IsHalted()
T1D90 000:675.922   CPU_ReadMem(2 bytes @ 0x20000000)
T1D90 000:676.254 - 2.736ms returns TRUE
T1D90 000:676.268 JLINK_ReadReg(R15 (PC))
T1D90 000:676.282 - 0.019ms returns 0x20000000
T1D90 000:676.295 JLINK_ClrBPEx(BPHandle = 0x00000007)
T1D90 000:676.308 - 0.018ms returns 0x00
T1D90 000:676.321 JLINK_ReadReg(R0)
T1D90 000:676.333 - 0.018ms returns 0x00000000
T1D90 000:676.693 JLINK_WriteMem(0x20000164, 0x29C Bytes, ...)
T1D90 000:676.716   Data:  09 78 30 F8 11 40 20 46 04 F0 AA FF 28 48 00 78 ...
T1D90 000:676.744   CPU_WriteMem(668 bytes @ 0x20000164)
T1D90 000:680.258 - 3.580ms returns 0x29C
T1D90 000:680.284 JLINK_WriteMem(0x20000400, 0x164 Bytes, ...)
T1D90 000:680.297   Data:  25 64 0A 00 43 4F 4E 4E 45 43 54 00 30 17 00 20 ...
T1D90 000:680.320   CPU_WriteMem(356 bytes @ 0x20000400)
T1D90 000:682.258 - 1.982ms returns 0x164
T1D90 000:682.274 JLINK_HasError()
T1D90 000:682.287 JLINK_WriteReg(R0, 0x08000C00)
T1D90 000:682.301 - 0.019ms returns 0
T1D90 000:682.314 JLINK_WriteReg(R1, 0x00000400)
T1D90 000:682.326 - 0.018ms returns 0
T1D90 000:682.339 JLINK_WriteReg(R2, 0x20000164)
T1D90 000:682.351 - 0.018ms returns 0
T1D90 000:682.364 JLINK_WriteReg(R3, 0x00000000)
T1D90 000:682.377 - 0.018ms returns 0
T1D90 000:682.389 JLINK_WriteReg(R4, 0x00000000)
T1D90 000:682.402 - 0.018ms returns 0
T1D90 000:682.415 JLINK_WriteReg(R5, 0x00000000)
T1D90 000:682.427 - 0.018ms returns 0
T1D90 000:682.440 JLINK_WriteReg(R6, 0x00000000)
T1D90 000:682.453 - 0.019ms returns 0
T1D90 000:682.466 JLINK_WriteReg(R7, 0x00000000)
T1D90 000:682.478 - 0.018ms returns 0
T1D90 000:682.491 JLINK_WriteReg(R8, 0x00000000)
T1D90 000:682.504 - 0.019ms returns 0
T1D90 000:682.517 JLINK_WriteReg(R9, 0x20000160)
T1D90 000:682.531 - 0.020ms returns 0
T1D90 000:682.544 JLINK_WriteReg(R10, 0x00000000)
T1D90 000:682.557 - 0.018ms returns 0
T1D90 000:682.569 JLINK_WriteReg(R11, 0x00000000)
T1D90 000:682.585 - 0.021ms returns 0
T1D90 000:682.598 JLINK_WriteReg(R12, 0x00000000)
T1D90 000:682.610 - 0.018ms returns 0
T1D90 000:682.623 JLINK_WriteReg(R13 (SP), 0x20001000)
T1D90 000:682.636 - 0.019ms returns 0
T1D90 000:682.649 JLINK_WriteReg(R14, 0x20000001)
T1D90 000:682.662 - 0.018ms returns 0
T1D90 000:682.675 JLINK_WriteReg(R15 (PC), 0x200000F4)
T1D90 000:682.687 - 0.018ms returns 0
T1D90 000:682.700 JLINK_WriteReg(XPSR, 0x01000000)
T1D90 000:682.713 - 0.018ms returns 0
T1D90 000:682.726 JLINK_WriteReg(MSP, 0x20001000)
T1D90 000:682.738 - 0.018ms returns 0
T1D90 000:682.751 JLINK_WriteReg(PSP, 0x20001000)
T1D90 000:682.763 - 0.018ms returns 0
T1D90 000:682.776 JLINK_WriteReg(CFBP, 0x00000000)
T1D90 000:682.789 - 0.018ms returns 0
T1D90 000:682.802 JLINK_SetBPEx(Addr = 0x20000000, Type = 0xFFFFFFF2)
T1D90 000:682.815 - 0.019ms returns 0x00000008
T1D90 000:682.828 JLINK_Go()
T1D90 000:682.845   CPU_ReadMem(4 bytes @ 0xE0001000)
T1D90 000:685.841 - 3.026ms
T1D90 000:685.863 JLINK_IsHalted()
T1D90 000:686.256 - 0.400ms returns FALSE
T1D90 000:686.271 JLINK_HasError()
T1D90 000:687.538 JLINK_IsHalted()
T1D90 000:687.838 - 0.316ms returns FALSE
T1D90 000:687.863 JLINK_HasError()
T1D90 000:689.538 JLINK_IsHalted()
T1D90 000:689.832 - 0.301ms returns FALSE
T1D90 000:689.848 JLINK_HasError()
T1D90 000:691.541 JLINK_IsHalted()
T1D90 000:691.861 - 0.328ms returns FALSE
T1D90 000:691.877 JLINK_HasError()
T1D90 000:693.541 JLINK_IsHalted()
T1D90 000:693.832 - 0.298ms returns FALSE
T1D90 000:693.847 JLINK_HasError()
T1D90 000:695.545 JLINK_IsHalted()
T1D90 000:695.834 - 0.296ms returns FALSE
T1D90 000:695.849 JLINK_HasError()
T1D90 000:697.546 JLINK_IsHalted()
T1D90 000:697.834 - 0.294ms returns FALSE
T1D90 000:697.850 JLINK_HasError()
T1D90 000:699.548 JLINK_IsHalted()
T1D90 000:699.834 - 0.292ms returns FALSE
T1D90 000:699.848 JLINK_HasError()
T1D90 000:701.550 JLINK_IsHalted()
T1D90 000:701.836 - 0.293ms returns FALSE
T1D90 000:701.852 JLINK_HasError()
T1D90 000:703.552 JLINK_IsHalted()
T1D90 000:703.834 - 0.289ms returns FALSE
T1D90 000:703.848 JLINK_HasError()
T1D90 000:705.553 JLINK_IsHalted()
T1D90 000:705.836 - 0.289ms returns FALSE
T1D90 000:705.850 JLINK_HasError()
T1D90 000:707.555 JLINK_IsHalted()
T1D90 000:707.835 - 0.287ms returns FALSE
T1D90 000:707.850 JLINK_HasError()
T1D90 000:709.556 JLINK_IsHalted()
T1D90 000:709.836 - 0.286ms returns FALSE
T1D90 000:709.850 JLINK_HasError()
T1D90 000:711.559 JLINK_IsHalted()
T1D90 000:711.836 - 0.284ms returns FALSE
T1D90 000:711.851 JLINK_HasError()
T1D90 000:713.560 JLINK_IsHalted()
T1D90 000:713.846 - 0.292ms returns FALSE
T1D90 000:713.860 JLINK_HasError()
T1D90 000:715.561 JLINK_IsHalted()
T1D90 000:715.837 - 0.288ms returns FALSE
T1D90 000:715.857 JLINK_HasError()
T1D90 000:717.564 JLINK_IsHalted()
T1D90 000:719.925   CPU_ReadMem(2 bytes @ 0x20000000)
T1D90 000:720.260 - 2.702ms returns TRUE
T1D90 000:720.275 JLINK_ReadReg(R15 (PC))
T1D90 000:720.288 - 0.019ms returns 0x20000000
T1D90 000:720.301 JLINK_ClrBPEx(BPHandle = 0x00000008)
T1D90 000:720.314 - 0.018ms returns 0x00
T1D90 000:720.327 JLINK_ReadReg(R0)
T1D90 000:720.339 - 0.018ms returns 0x00000000
T1D90 000:720.706 JLINK_WriteMem(0x20000164, 0x29C Bytes, ...)
T1D90 000:720.726   Data:  14 48 FF F7 20 F9 69 46 12 48 0A F0 CD F8 06 46 ...
T1D90 000:720.749   CPU_WriteMem(668 bytes @ 0x20000164)
T1D90 000:724.262 - 3.573ms returns 0x29C
T1D90 000:724.291 JLINK_WriteMem(0x20000400, 0x164 Bytes, ...)
T1D90 000:724.304   Data:  18 B1 FF F7 8D FF 01 20 DB E7 00 20 D9 E7 00 00 ...
T1D90 000:724.327   CPU_WriteMem(356 bytes @ 0x20000400)
T1D90 000:726.265 - 1.988ms returns 0x164
T1D90 000:726.289 JLINK_HasError()
T1D90 000:726.304 JLINK_WriteReg(R0, 0x08001000)
T1D90 000:726.318 - 0.020ms returns 0
T1D90 000:726.333 JLINK_WriteReg(R1, 0x00000400)
T1D90 000:726.347 - 0.020ms returns 0
T1D90 000:726.361 JLINK_WriteReg(R2, 0x20000164)
T1D90 000:726.373 - 0.018ms returns 0
T1D90 000:726.387 JLINK_WriteReg(R3, 0x00000000)
T1D90 000:726.399 - 0.018ms returns 0
T1D90 000:726.413 JLINK_WriteReg(R4, 0x00000000)
T1D90 000:726.425 - 0.018ms returns 0
T1D90 000:726.439 JLINK_WriteReg(R5, 0x00000000)
T1D90 000:726.451 - 0.018ms returns 0
T1D90 000:726.465 JLINK_WriteReg(R6, 0x00000000)
T1D90 000:726.477 - 0.018ms returns 0
T1D90 000:726.491 JLINK_WriteReg(R7, 0x00000000)
T1D90 000:726.503 - 0.018ms returns 0
T1D90 000:726.517 JLINK_WriteReg(R8, 0x00000000)
T1D90 000:726.529 - 0.018ms returns 0
T1D90 000:726.542 JLINK_WriteReg(R9, 0x20000160)
T1D90 000:726.555 - 0.018ms returns 0
T1D90 000:726.570 JLINK_WriteReg(R10, 0x00000000)
T1D90 000:726.583 - 0.019ms returns 0
T1D90 000:726.596 JLINK_WriteReg(R11, 0x00000000)
T1D90 000:726.609 - 0.018ms returns 0
T1D90 000:726.622 JLINK_WriteReg(R12, 0x00000000)
T1D90 000:726.635 - 0.018ms returns 0
T1D90 000:726.648 JLINK_WriteReg(R13 (SP), 0x20001000)
T1D90 000:726.661 - 0.018ms returns 0
T1D90 000:726.675 JLINK_WriteReg(R14, 0x20000001)
T1D90 000:726.687 - 0.018ms returns 0
T1D90 000:726.701 JLINK_WriteReg(R15 (PC), 0x200000F4)
T1D90 000:726.713 - 0.018ms returns 0
T1D90 000:726.727 JLINK_WriteReg(XPSR, 0x01000000)
T1D90 000:726.739 - 0.020ms returns 0
T1D90 000:726.755 JLINK_WriteReg(MSP, 0x20001000)
T1D90 000:726.767 - 0.018ms returns 0
T1D90 000:726.781 JLINK_WriteReg(PSP, 0x20001000)
T1D90 000:726.793 - 0.018ms returns 0
T1D90 000:726.807 JLINK_WriteReg(CFBP, 0x00000000)
T1D90 000:726.820 - 0.018ms returns 0
T1D90 000:726.833 JLINK_SetBPEx(Addr = 0x20000000, Type = 0xFFFFFFF2)
T1D90 000:726.847 - 0.019ms returns 0x00000009
T1D90 000:726.860 JLINK_Go()
T1D90 000:726.878   CPU_ReadMem(4 bytes @ 0xE0001000)
T1D90 000:730.263 - 3.411ms
T1D90 000:730.280 JLINK_IsHalted()
T1D90 000:730.699 - 0.432ms returns FALSE
T1D90 000:730.722 JLINK_HasError()
T1D90 000:732.580 JLINK_IsHalted()
T1D90 000:732.842 - 0.269ms returns FALSE
T1D90 000:732.857 JLINK_HasError()
T1D90 000:734.580 JLINK_IsHalted()
T1D90 000:734.843 - 0.270ms returns FALSE
T1D90 000:734.858 JLINK_HasError()
T1D90 000:736.582 JLINK_IsHalted()
T1D90 000:736.843 - 0.277ms returns FALSE
T1D90 000:736.868 JLINK_HasError()
T1D90 000:738.584 JLINK_IsHalted()
T1D90 000:738.839 - 0.263ms returns FALSE
T1D90 000:738.854 JLINK_HasError()
T1D90 000:740.585 JLINK_IsHalted()
T1D90 000:740.840 - 0.261ms returns FALSE
T1D90 000:740.854 JLINK_HasError()
T1D90 000:742.588 JLINK_IsHalted()
T1D90 000:742.839 - 0.260ms returns FALSE
T1D90 000:742.856 JLINK_HasError()
T1D90 000:744.588 JLINK_IsHalted()
T1D90 000:744.840 - 0.258ms returns FALSE
T1D90 000:744.857 JLINK_HasError()
T1D90 000:746.594 JLINK_IsHalted()
T1D90 000:746.841 - 0.254ms returns FALSE
T1D90 000:746.856 JLINK_HasError()
T1D90 000:748.591 JLINK_IsHalted()
T1D90 000:748.840 - 0.256ms returns FALSE
T1D90 000:748.855 JLINK_HasError()
T1D90 000:750.594 JLINK_IsHalted()
T1D90 000:750.840 - 0.252ms returns FALSE
T1D90 000:750.854 JLINK_HasError()
T1D90 000:752.595 JLINK_IsHalted()
T1D90 000:752.840 - 0.251ms returns FALSE
T1D90 000:752.854 JLINK_HasError()
T1D90 000:754.599 JLINK_IsHalted()
T1D90 000:755.263 - 0.671ms returns FALSE
T1D90 000:755.278 JLINK_HasError()
T1D90 000:756.599 JLINK_IsHalted()
T1D90 000:757.270 - 0.678ms returns FALSE
T1D90 000:757.285 JLINK_HasError()
T1D90 000:758.600 JLINK_IsHalted()
T1D90 000:759.262 - 0.668ms returns FALSE
T1D90 000:759.277 JLINK_HasError()
T1D90 000:760.603 JLINK_IsHalted()
T1D90 000:762.948   CPU_ReadMem(2 bytes @ 0x20000000)
T1D90 000:763.266 - 2.670ms returns TRUE
T1D90 000:763.282 JLINK_ReadReg(R15 (PC))
T1D90 000:763.296 - 0.019ms returns 0x20000000
T1D90 000:763.312 JLINK_ClrBPEx(BPHandle = 0x00000009)
T1D90 000:763.324 - 0.018ms returns 0x00
T1D90 000:763.338 JLINK_ReadReg(R0)
T1D90 000:763.350 - 0.018ms returns 0x00000000
T1D90 000:763.717 JLINK_WriteMem(0x20000164, 0x29C Bytes, ...)
T1D90 000:763.735   Data:  41 71 00 21 81 71 64 21 C1 71 C0 20 8B 49 08 72 ...
T1D90 000:763.758   CPU_WriteMem(668 bytes @ 0x20000164)
T1D90 000:766.848 - 3.147ms returns 0x29C
T1D90 000:766.873 JLINK_WriteMem(0x20000400, 0x164 Bytes, ...)
T1D90 000:766.886   Data:  30 B5 87 B0 00 20 02 90 34 48 00 68 34 49 08 44 ...
T1D90 000:766.909   CPU_WriteMem(356 bytes @ 0x20000400)
T1D90 000:769.847 - 2.981ms returns 0x164
T1D90 000:769.863 JLINK_HasError()
T1D90 000:769.876 JLINK_WriteReg(R0, 0x08001400)
T1D90 000:769.889 - 0.019ms returns 0
T1D90 000:769.903 JLINK_WriteReg(R1, 0x00000400)
T1D90 000:769.915 - 0.018ms returns 0
T1D90 000:769.928 JLINK_WriteReg(R2, 0x20000164)
T1D90 000:769.940 - 0.018ms returns 0
T1D90 000:769.953 JLINK_WriteReg(R3, 0x00000000)
T1D90 000:769.966 - 0.018ms returns 0
T1D90 000:769.979 JLINK_WriteReg(R4, 0x00000000)
T1D90 000:769.991 - 0.018ms returns 0
T1D90 000:770.004 JLINK_WriteReg(R5, 0x00000000)
T1D90 000:770.016 - 0.018ms returns 0
T1D90 000:770.029 JLINK_WriteReg(R6, 0x00000000)
T1D90 000:770.042 - 0.018ms returns 0
T1D90 000:770.055 JLINK_WriteReg(R7, 0x00000000)
T1D90 000:770.067 - 0.018ms returns 0
T1D90 000:770.081 JLINK_WriteReg(R8, 0x00000000)
T1D90 000:770.095 - 0.020ms returns 0
T1D90 000:770.108 JLINK_WriteReg(R9, 0x20000160)
T1D90 000:770.121 - 0.018ms returns 0
T1D90 000:770.134 JLINK_WriteReg(R10, 0x00000000)
T1D90 000:770.147 - 0.018ms returns 0
T1D90 000:770.160 JLINK_WriteReg(R11, 0x00000000)
T1D90 000:770.172 - 0.018ms returns 0
T1D90 000:770.185 JLINK_WriteReg(R12, 0x00000000)
T1D90 000:770.198 - 0.018ms returns 0
T1D90 000:770.210 JLINK_WriteReg(R13 (SP), 0x20001000)
T1D90 000:770.223 - 0.019ms returns 0
T1D90 000:770.236 JLINK_WriteReg(R14, 0x20000001)
T1D90 000:770.249 - 0.018ms returns 0
T1D90 000:770.262 JLINK_WriteReg(R15 (PC), 0x200000F4)
T1D90 000:770.274 - 0.018ms returns 0
T1D90 000:770.287 JLINK_WriteReg(XPSR, 0x01000000)
T1D90 000:770.300 - 0.018ms returns 0
T1D90 000:770.313 JLINK_WriteReg(MSP, 0x20001000)
T1D90 000:770.325 - 0.018ms returns 0
T1D90 000:770.338 JLINK_WriteReg(PSP, 0x20001000)
T1D90 000:770.350 - 0.018ms returns 0
T1D90 000:770.363 JLINK_WriteReg(CFBP, 0x00000000)
T1D90 000:770.376 - 0.018ms returns 0
T1D90 000:770.389 JLINK_SetBPEx(Addr = 0x20000000, Type = 0xFFFFFFF2)
T1D90 000:770.402 - 0.019ms returns 0x0000000A
T1D90 000:770.415 JLINK_Go()
T1D90 000:770.432   CPU_ReadMem(4 bytes @ 0xE0001000)
T1D90 000:773.848 - 3.442ms
T1D90 000:773.866 JLINK_IsHalted()
T1D90 000:774.266 - 0.407ms returns FALSE
T1D90 000:774.283 JLINK_HasError()
T1D90 000:775.620 JLINK_IsHalted()
T1D90 000:776.269 - 0.664ms returns FALSE
T1D90 000:776.294 JLINK_HasError()
T1D90 000:777.619 JLINK_IsHalted()
T1D90 000:778.264 - 0.654ms returns FALSE
T1D90 000:778.283 JLINK_HasError()
T1D90 000:779.620 JLINK_IsHalted()
T1D90 000:780.264 - 0.650ms returns FALSE
T1D90 000:780.279 JLINK_HasError()
T1D90 000:781.621 JLINK_IsHalted()
T1D90 000:782.265 - 0.650ms returns FALSE
T1D90 000:782.280 JLINK_HasError()
T1D90 000:783.624 JLINK_IsHalted()
T1D90 000:784.264 - 0.646ms returns FALSE
T1D90 000:784.278 JLINK_HasError()
T1D90 000:785.625 JLINK_IsHalted()
T1D90 000:786.266 - 0.647ms returns FALSE
T1D90 000:786.281 JLINK_HasError()
T1D90 000:787.626 JLINK_IsHalted()
T1D90 000:788.264 - 0.644ms returns FALSE
T1D90 000:788.278 JLINK_HasError()
T1D90 000:789.628 JLINK_IsHalted()
T1D90 000:790.265 - 0.643ms returns FALSE
T1D90 000:790.279 JLINK_HasError()
T1D90 000:791.633 JLINK_IsHalted()
T1D90 000:792.269 - 0.645ms returns FALSE
T1D90 000:792.286 JLINK_HasError()
T1D90 000:793.634 JLINK_IsHalted()
T1D90 000:794.266 - 0.639ms returns FALSE
T1D90 000:794.280 JLINK_HasError()
T1D90 000:795.647 JLINK_IsHalted()
T1D90 000:796.268 - 0.628ms returns FALSE
T1D90 000:796.283 JLINK_HasError()
T1D90 000:797.635 JLINK_IsHalted()
T1D90 000:798.266 - 0.637ms returns FALSE
T1D90 000:798.281 JLINK_HasError()
T1D90 000:799.639 JLINK_IsHalted()
T1D90 000:800.267 - 0.634ms returns FALSE
T1D90 000:800.281 JLINK_HasError()
T1D90 000:801.641 JLINK_IsHalted()
T1D90 000:802.278 - 0.643ms returns FALSE
T1D90 000:802.293 JLINK_HasError()
T1D90 000:803.642 JLINK_IsHalted()
T1D90 000:804.267 - 0.631ms returns FALSE
T1D90 000:804.281 JLINK_HasError()
T1D90 000:805.668 JLINK_IsHalted()
T1D90 000:807.935   CPU_ReadMem(2 bytes @ 0x20000000)
T1D90 000:808.269 - 2.608ms returns TRUE
T1D90 000:808.284 JLINK_ReadReg(R15 (PC))
T1D90 000:808.298 - 0.019ms returns 0x20000000
T1D90 000:808.311 JLINK_ClrBPEx(BPHandle = 0x0000000A)
T1D90 000:808.324 - 0.018ms returns 0x00
T1D90 000:808.337 JLINK_ReadReg(R0)
T1D90 000:808.349 - 0.018ms returns 0x00000000
